Circuit: * Z:\home\chesito\github\Out2\Draft1.asc

Direct Newton iteration for .op point succeeded.
Semiconductor Device Operating Points:
                        --- Bipolar Transistors ---
Name:       q4          q3          q2          q1
Model:    2n3904      2n3904      2n3904      2n3904
Ib:       5.58e-06    5.58e-06    1.35e-05    1.35e-05
Ic:       2.01e-03    2.01e-03    4.01e-03    4.03e-03
Vbe:      6.69e-01    6.69e-01    6.92e-01    6.92e-01
Vbc:     -2.06e+01   -2.06e+01    0.00e+00   -6.69e-01
Vce:      2.13e+01    2.13e+01    6.92e-01    1.36e+00
BetaDC:   3.60e+02    3.60e+02    2.97e+02    2.99e+02
Gm:       7.79e-02    7.79e-02    1.53e-01    1.54e-01
Rpi:      4.61e+03    4.61e+03    1.92e+03    1.92e+03
Rx:       2.00e+01    2.00e+01    2.00e+01    2.00e+01
Ro:       5.96e+04    5.96e+04    2.50e+04    2.50e+04
Cbe:      3.99e-11    3.99e-11    6.65e-11    6.69e-11
Cbc:      1.32e-12    1.32e-12    4.00e-12    3.24e-12
Cjs:      0.00e+00    0.00e+00    0.00e+00    0.00e+00
BetaAC:   3.59e+02    3.59e+02    2.94e+02    2.96e+02
Cbx:      0.00e+00    0.00e+00    0.00e+00    0.00e+00
Ft:       3.01e+08    3.01e+08    3.46e+08    3.50e+08



Date: Sun Apr 16 23:50:06 2017
Total elapsed time: 0.198 seconds.

tnom = 27
temp = 27
method = trap
totiter = 5
traniter = 0
tranpoints = 0
accept = 0
rejected = 0
matrix size = 20
fillins = 6
solver = Normal
Matrix Compiler1: 1.97 KB object code size
Matrix Compiler2: 1.90 KB object code size

